
T383C 000:059 SEGGER J-Link V6.00e Log File (0001ms, 0028ms total)
T383C 000:059 DLL Compiled: Aug  4 2016 09:37:38 (0001ms, 0028ms total)
T383C 000:059 Logging started @ 2018-03-22 16:44 (0001ms, 0028ms total)
T383C 000:060 JLINK_SetWarnOutHandler(...) (0000ms, 0028ms total)
T383C 000:060 JLINK_OpenEx(...)
Firmware: J-Link ARM V8 compiled Jan 31 2018 18:34:52
Hardware: V8.00
S/N: 20080643
Feature(s): RDI,FlashDL,FlashBP,JFlash,GDBFull  returns O.K. (0022ms, 0050ms total)
T383C 000:082 JLINK_SetErrorOutHandler(...) (0000ms, 0050ms total)
T383C 000:082 JLINK_ExecCommand("ProjectFile = "H:\´ó´´\Gimbalnuaa_std\F407STD\USER\JLinkSettings.ini"", ...). Device "STM32F407VE" selected.  returns 0x00 (0133ms, 0183ms total)
T383C 000:215 JLINK_ExecCommand("Device = STM32F407ZG", ...). Device "STM32F407VE" selected.  returns 0x00 (0001ms, 0184ms total)
T383C 000:216 JLINK_ExecCommand("DisableConnectionTimeout", ...).   returns 0x01 (0000ms, 0184ms total)
T383C 000:216 JLINK_GetHardwareVersion()  returns 0x13880 (0000ms, 0184ms total)
T383C 000:216 JLINK_GetDLLVersion()  returns 60005 (0000ms, 0184ms total)
T383C 000:216 JLINK_GetFirmwareString(...) (0000ms, 0184ms total)
T383C 000:216 JLINK_GetDLLVersion()  returns 60005 (0000ms, 0184ms total)
T383C 000:216 JLINK_GetCompileDateTime() (0000ms, 0184ms total)
T383C 000:216 JLINK_GetFirmwareString(...) (0000ms, 0184ms total)
T383C 000:216 JLINK_GetHardwareVersion()  returns 0x13880 (0000ms, 0184ms total)
T383C 000:216 JLINK_TIF_Select(JLINKARM_TIF_JTAG)  returns 0x00 (0009ms, 0193ms total)
T383C 000:225 JLINK_SetSpeed(5000) (0001ms, 0194ms total)
T383C 000:226 JLINK_GetIdData(...) >0x2F8 JTAG>TotalIRLen = 9, IRPrint = 0x0011 >0x30 JTAG> >0x410 JTAG> >0x40 JTAG> >0x40 JTAG> >0x40 JTAG> >0x30 JTAG> >0x40 JTAG> >0x40 JTAG> >0x40 JTAG> >0x40 JTAG> >0x40 JTAG> >0x40 JTAG> >0x40 JTAG> >0x40 JTAG> >0x40 JTAG> >0x40 JTAG> >0x40 JTAG> >0x40 JTAG> >0x40 JTAG> >0x40 JTAG> >0x40 JTAG> >0x40 JTAG> >0x40 JTAG> >0x40 JTAG> >0x40 JTAG> >0x40 JTAG> >0x2F8 JTAG>TotalIRLen = 9, IRPrint = 0x0011 >0x30 JTAG> >0x410 JTAG> >0x70 JTAG> >0x50 JTAG> >0x40 JTAG>
 >0x50 JTAG>AP-IDR: 0x24770011, Type: AHB-AP >0x80 JTAG> >0x40 JTAG> >0x30 JTAG> >0x40 JTAG> >0x40 JTAG> >0x30 JTAG> >0x40 JTAG> >0x50 JTAG>Found Cortex-M4 r0p1, Little endian. -- CPU_ReadMem(4 bytes @ 0xE000EDF0) -- CPU_ReadMem(4 bytes @ 0xE0002000)FPUnit: 6 code (BP) slots and 2 literal slots -- CPU_ReadMem(4 bytes @ 0xE000EDFC) -- CPU_ReadMem(4 bytes @ 0xE0001000) -- CPU_WriteMem(4 bytes @ 0xE0001000) -- CPU_ReadMem(4 bytes @ 0xE000ED88) -- CPU_WriteMem(4 bytes @ 0xE000ED88)
 -- CPU_ReadMem(4 bytes @ 0xE000ED88) -- CPU_WriteMem(4 bytes @ 0xE000ED88)CoreSight components:ROMTbl 0 @ E00FF000 -- CPU_ReadMem(16 bytes @ 0xE00FF000) -- CPU_ReadMem(16 bytes @ 0xE000EFF0) -- CPU_ReadMem(16 bytes @ 0xE000EFE0)ROMTbl 0 [0]: FFF0F000, CID: B105E00D, PID: 000BB00C SCS -- CPU_ReadMem(16 bytes @ 0xE0001FF0) -- CPU_ReadMem(16 bytes @ 0xE0001FE0)ROMTbl 0 [1]: FFF02000, CID: B105E00D, PID: 003BB002 DWT -- CPU_ReadMem(16 bytes @ 0xE0002FF0) -- CPU_ReadMem(16 bytes @ 0xE0002FE0)
ROMTbl 0 [2]: FFF03000, CID: B105E00D, PID: 002BB003 FPB -- CPU_ReadMem(16 bytes @ 0xE0000FF0) -- CPU_ReadMem(16 bytes @ 0xE0000FE0)ROMTbl 0 [3]: FFF01000, CID: B105E00D, PID: 003BB001 ITM -- CPU_ReadMem(16 bytes @ 0xE00FF010) -- CPU_ReadMem(16 bytes @ 0xE0040FF0) -- CPU_ReadMem(16 bytes @ 0xE0040FE0)ROMTbl 0 [4]: FFF41000, CID: B105900D, PID: 000BB9A1 TPIU -- CPU_ReadMem(16 bytes @ 0xE0041FF0) -- CPU_ReadMem(16 bytes @ 0xE0041FE0)ROMTbl 0 [5]: FFF42000, CID: B105900D, PID: 000BB925 ETM ScanLen=9
 NumDevices=2 aId[0]=0x4BA00477 aIrRead[0]=0 aScanLen[0]=0 aScanRead[0]=0 (0101ms, 0295ms total)
T383C 000:327 JLINK_JTAG_GetDeviceID(DeviceIndex = 0)  returns 0x4BA00477 (0000ms, 0295ms total)
T383C 000:327 JLINK_JTAG_GetDeviceInfo(DeviceIndex = 0)  returns 0x00 (0000ms, 0295ms total)
T383C 000:327 JLINK_JTAG_GetDeviceID(DeviceIndex = 1)  returns 0x6413041 (0000ms, 0295ms total)
T383C 000:327 JLINK_JTAG_GetDeviceInfo(DeviceIndex = 1)  returns 0x00 (0000ms, 0295ms total)
T383C 000:327 JLINK_GetDLLVersion()  returns 60005 (0001ms, 0296ms total)
T383C 000:328 JLINK_CORE_GetFound()  returns 0xE0000FF (0000ms, 0296ms total)
T383C 000:328 JLINK_GetDebugInfo(0x100) -- Value=0xE00FF003  returns 0x00 (0000ms, 0296ms total)
T383C 000:328 JLINK_GetDebugInfo(0x100) -- Value=0xE00FF003  returns 0x00 (0000ms, 0296ms total)
T383C 000:328 JLINK_GetDebugInfo(0x101) -- Value=0xE0041000  returns 0x00 (0000ms, 0296ms total)
T383C 000:328 JLINK_GetDebugInfo(0x102) -- Value=0x00000000  returns 0x00 (0000ms, 0296ms total)
T383C 000:328 JLINK_GetDebugInfo(0x103) -- Value=0xE0040000  returns 0x00 (0000ms, 0296ms total)
T383C 000:328 JLINK_GetDebugInfo(0x104) -- Value=0xE0000000  returns 0x00 (0000ms, 0296ms total)
T383C 000:328 JLINK_GetDebugInfo(0x105) -- Value=0xE0001000  returns 0x00 (0000ms, 0296ms total)
T383C 000:328 JLINK_GetDebugInfo(0x106) -- Value=0xE0002000  returns 0x00 (0000ms, 0296ms total)
T383C 000:328 JLINK_GetDebugInfo(0x107) -- Value=0xE000E000  returns 0x00 (0000ms, 0296ms total)
T383C 000:328 JLINK_GetDebugInfo(0x10C) -- Value=0xE000EDF0  returns 0x00 (0000ms, 0296ms total)
T383C 000:328 JLINK_ReadMemU32(0xE000EF40, 0x0001 Items, ...) -- CPU is running -- CPU_ReadMem(4 bytes @ 0xE000EF40) - Data: 21 00 11 10  returns 0x01 (0001ms, 0297ms total)
T383C 000:330 JLINK_ReadMemU32(0xE000EF44, 0x0001 Items, ...) -- CPU is running -- CPU_ReadMem(4 bytes @ 0xE000EF44) - Data: 11 00 00 11  returns 0x01 (0001ms, 0299ms total)
T383C 000:331 JLINK_ReadMemU32(0xE000ED00, 0x0001 Items, ...) -- CPU is running -- CPU_ReadMem(4 bytes @ 0xE000ED00) - Data: 41 C2 0F 41  returns 0x01 (0001ms, 0300ms total)
T383C 000:332 JLINK_SetResetType(JLINKARM_RESET_TYPE_NORMAL)  returns JLINKARM_RESET_TYPE_NORMAL (0000ms, 0300ms total)
T383C 000:332 JLINK_Reset() -- CPU is running -- CPU_WriteMem(4 bytes @ 0xE000EDF0) -- CPU is running -- CPU_WriteMem(4 bytes @ 0xE000EDFC) -- CPU is running -- CPU_WriteMem(4 bytes @ 0xE000ED0C) -- CPU is running -- CPU_ReadMem(4 bytes @ 0xE000EDF0) -- CPU is running -- CPU_ReadMem(4 bytes @ 0xE000EDF0) -- CPU is running -- CPU_WriteMem(4 bytes @ 0xE000EDF0) -- CPU is running -- CPU_WriteMem(4 bytes @ 0xE000EDFC) -- CPU is running -- CPU_ReadMem(4 bytes @ 0xE000EDF0) >0x80 JTAG> >0x40 JTAG> >0x30 JTAG>
 >0x40 JTAG> >0x50 JTAG> >0x40 JTAG> -- CPU_WriteMem(4 bytes @ 0xE000EDFC) -- CPU_WriteMem(4 bytes @ 0xE0001028) -- CPU_WriteMem(4 bytes @ 0xE0001038) -- CPU_WriteMem(4 bytes @ 0xE0001048) -- CPU_WriteMem(4 bytes @ 0xE0001058) -- CPU_WriteMem(4 bytes @ 0xE0002000) -- CPU_ReadMem(4 bytes @ 0xE000EDFC) -- CPU_ReadMem(4 bytes @ 0xE0001000) (0048ms, 0348ms total)
T383C 000:380 JLINK_ReadReg(R15 (PC))  returns 0x0800026C (0000ms, 0348ms total)
T383C 000:380 JLINK_ReadReg(XPSR)  returns 0x01000000 (0000ms, 0348ms total)
T383C 000:380 JLINK_Halt()  returns 0x00 (0000ms, 0348ms total)
T383C 000:380 JLINK_IsHalted()  returns TRUE (0001ms, 0349ms total)
T383C 000:381 JLINK_ReadMemU32(0xE000EDF0, 0x0001 Items, ...) -- CPU_ReadMem(4 bytes @ 0xE000EDF0) - Data: 03 00 03 00  returns 0x01 (0001ms, 0349ms total)
T383C 000:382 JLINK_WriteU32(0xE000EDF0, 0xA05F0003) -- CPU_WriteMem(4 bytes @ 0xE000EDF0)  returns 0x00 (0001ms, 0350ms total)
T383C 000:384 JLINK_WriteU32(0xE000EDFC, 0x01000000) -- CPU_WriteMem(4 bytes @ 0xE000EDFC)  returns 0x00 (0001ms, 0352ms total)
T383C 000:385 JLINK_GetHWStatus(...)  returns 0x00 (0001ms, 0353ms total)
T383C 000:386 JLINK_GetNumBPUnits(Type = 0xFFFFFF00)  returns 0x06 (0000ms, 0353ms total)
T383C 000:386 JLINK_GetNumBPUnits(Type = 0xF0)  returns 0x2000 (0000ms, 0353ms total)
T383C 000:386 JLINK_GetNumWPUnits()  returns 0x04 (0000ms, 0353ms total)
T383C 000:386 JLINK_GetSpeed()  returns 0x12C0 (0000ms, 0353ms total)
T383C 000:387 JLINK_ReadMemU32(0xE000E004, 0x0001 Items, ...) -- CPU_ReadMem(4 bytes @ 0xE000E004) - Data: 02 00 00 00  returns 0x01 (0001ms, 0355ms total)
T383C 000:388 JLINK_ReadMemU32(0xE000E004, 0x0001 Items, ...) -- CPU_ReadMem(4 bytes @ 0xE000E004) - Data: 02 00 00 00  returns 0x01 (0001ms, 0356ms total)
T383C 000:389 JLINK_WriteMem(0xE0001000, 0x001C Bytes, ...) - Data: 01 00 00 00 00 00 00 00 00 00 00 00 00 00 00 00 ... -- CPU_WriteMem(28 bytes @ 0xE0001000)  returns 0x1C (0002ms, 0358ms total)
T383C 000:391 JLINK_ReadMem (0xE0001000, 0x001C Bytes, ...) -- CPU_ReadMem(28 bytes @ 0xE0001000) - Data: 01 00 00 40 00 00 00 00 00 00 00 00 00 00 00 00 ...  returns 0x00 (0001ms, 0359ms total)
T383C 000:392 JLINK_ReadReg(R15 (PC))  returns 0x0800026C (0000ms, 0359ms total)
T383C 000:392 JLINK_ReadReg(XPSR)  returns 0x01000000 (0001ms, 0360ms total)
T383C 000:485 JLINK_SetResetType(JLINKARM_RESET_TYPE_NORMAL)  returns JLINKARM_RESET_TYPE_NORMAL (0000ms, 0360ms total)
T383C 000:485 JLINK_Reset() -- CPU_WriteMem(4 bytes @ 0xE000EDF0) -- CPU_WriteMem(4 bytes @ 0xE000EDFC) -- CPU_WriteMem(4 bytes @ 0xE000ED0C) -- CPU_ReadMem(4 bytes @ 0xE000EDF0) -- CPU_ReadMem(4 bytes @ 0xE000EDF0) -- CPU_WriteMem(4 bytes @ 0xE000EDF0) -- CPU_WriteMem(4 bytes @ 0xE000EDFC) -- CPU is running -- CPU_ReadMem(4 bytes @ 0xE000EDF0) >0x80 JTAG> >0x40 JTAG> >0x30 JTAG> >0x40 JTAG> >0x50 JTAG> >0x40 JTAG> -- CPU_WriteMem(4 bytes @ 0xE000EDFC) -- CPU_WriteMem(4 bytes @ 0xE0001028)
 -- CPU_WriteMem(4 bytes @ 0xE0001038) -- CPU_WriteMem(4 bytes @ 0xE0001048) -- CPU_WriteMem(4 bytes @ 0xE0001058) -- CPU_WriteMem(4 bytes @ 0xE0002000) -- CPU_ReadMem(4 bytes @ 0xE000EDFC) -- CPU_ReadMem(4 bytes @ 0xE0001000) (0048ms, 0408ms total)
T383C 000:534 JLINK_ReadReg(R15 (PC))  returns 0x0800026C (0000ms, 0409ms total)
T383C 000:534 JLINK_ReadReg(XPSR)  returns 0x01000000 (0000ms, 0409ms total)
T383C 000:534 JLINK_ReadMem (0x08000188, 0x003C Bytes, ...) -- CPU_ReadMem(128 bytes @ 0x08000180) -- Updating C cache (128 bytes @ 0x08000180) -- Read from C cache (60 bytes @ 0x08000188) - Data: 00 F0 02 F8 00 F0 5E F8 0A A0 90 E8 00 0C 82 44 ...  returns 0x00 (0002ms, 0411ms total)
T383C 000:536 JLINK_ReadMem (0x080001C4, 0x003C Bytes, ...) -- Read from C cache (60 bytes @ 0x080001C4) - Data: 0A 44 4F F0 00 0C 10 F8 01 3B 13 F0 07 04 08 BF ...  returns 0x00 (0000ms, 0411ms total)
T383C 000:536 JLINK_ReadMem (0x08000200, 0x003C Bytes, ...) -- CPU_ReadMem(64 bytes @ 0x08000200) -- Updating C cache (64 bytes @ 0x08000200) -- Read from C cache (60 bytes @ 0x08000200) - Data: 6D 1E 58 BF 01 F8 01 CB FA D5 05 E0 14 F8 01 6B ...  returns 0x00 (0001ms, 0412ms total)
T383C 000:537 JLINK_ReadMem (0x0800023C, 0x003C Bytes, ...) -- CPU_ReadMem(64 bytes @ 0x08000240) -- Updating C cache (64 bytes @ 0x08000240) -- Read from C cache (60 bytes @ 0x0800023C) - Data: 00 20 70 47 1F B5 06 F0 CC FB 1F BD 10 B5 10 BD ...  returns 0x00 (0002ms, 0414ms total)
T383C 003:505 JLINK_ReadMem (0x00000000, 0x0004 Bytes, ...) -- CPU_ReadMem(4 bytes @ 0x00000004) -- CPU_ReadMem(64 bytes @ 0x08000000) -- Updating C cache (64 bytes @ 0x08000000) -- Read from C cache (4 bytes @ 0x08000000) - Data: 70 34 00 20  returns 0x00 (0003ms, 0417ms total)
T383C 003:540 JLINK_ReadMem (0x2000012A, 0x0001 Bytes, ...) -- CPU_ReadMem(64 bytes @ 0x20000100) -- Updating C cache (64 bytes @ 0x20000100) -- Read from C cache (1 bytes @ 0x2000012A) - Data: 00  returns 0x00 (0002ms, 0419ms total)
T383C 003:552 JLINK_ReadMem (0x200000F0, 0x0004 Bytes, ...) -- CPU_ReadMem(64 bytes @ 0x200000C0) -- Updating C cache (64 bytes @ 0x200000C0) -- Read from C cache (4 bytes @ 0x200000F0) - Data: 00 00 2C 42  returns 0x00 (0002ms, 0421ms total)
T383C 003:609 JLINK_ReadMem (0x20000048, 0x0004 Bytes, ...) -- CPU_ReadMem(64 bytes @ 0x20000040) -- Updating C cache (64 bytes @ 0x20000040) -- Read from C cache (4 bytes @ 0x20000048) - Data: 00 62 81 46  returns 0x00 (0002ms, 0423ms total)
T26B4 003:682 JLINK_SetBPEx(Addr = 0x08005948, Type = 0xFFFFFFF2)  returns 0x00000001 (0000ms, 0423ms total)
T26B4 003:682 JLINK_SetBPEx(Addr = 0x0800051A, Type = 0xFFFFFFF2)  returns 0x00000002 (0000ms, 0423ms total)
T26B4 003:682 JLINK_SetBPEx(Addr = 0x0800242A, Type = 0xFFFFFFF2)  returns 0x00000003 (0000ms, 0423ms total)
T26B4 003:682 JLINK_SetBPEx(Addr = 0x08002454, Type = 0xFFFFFFF2)  returns 0x00000004 (0000ms, 0423ms total)
T26B4 003:682 JLINK_Go() -- CPU_ReadMem(4 bytes @ 0xE0001000) -- CPU_WriteMem(4 bytes @ 0xE0002008) -- CPU_WriteMem(4 bytes @ 0xE000200C) -- CPU_WriteMem(4 bytes @ 0xE0002010) -- CPU_WriteMem(4 bytes @ 0xE0002014) -- CPU_WriteMem(4 bytes @ 0xE0002018) -- CPU_WriteMem(4 bytes @ 0xE000201C) -- CPU_WriteMem(4 bytes @ 0xE0001004) (0008ms, 0431ms total)
T26B4 003:791 JLINK_IsHalted()  returns TRUE (0005ms, 0436ms total)
T26B4 003:796 JLINK_Halt()  returns 0x00 (0000ms, 0431ms total)
T26B4 003:796 JLINK_IsHalted()  returns TRUE (0000ms, 0431ms total)
T26B4 003:796 JLINK_IsHalted()  returns TRUE (0000ms, 0431ms total)
T26B4 003:796 JLINK_IsHalted()  returns TRUE (0000ms, 0431ms total)
T26B4 003:796 JLINK_ReadReg(R15 (PC))  returns 0x08005948 (0000ms, 0431ms total)
T26B4 003:796 JLINK_ReadReg(XPSR)  returns 0x21000000 (0000ms, 0431ms total)
T26B4 003:796 JLINK_ClrBPEx(BPHandle = 0x00000001)  returns 0x00 (0000ms, 0431ms total)
T26B4 003:796 JLINK_ClrBPEx(BPHandle = 0x00000002)  returns 0x00 (0000ms, 0431ms total)
T26B4 003:796 JLINK_ClrBPEx(BPHandle = 0x00000003)  returns 0x00 (0000ms, 0431ms total)
T26B4 003:796 JLINK_ClrBPEx(BPHandle = 0x00000004)  returns 0x00 (0000ms, 0431ms total)
T26B4 003:796 JLINK_ReadMemU32(0xE000ED30, 0x0001 Items, ...) -- CPU_ReadMem(4 bytes @ 0xE000ED30) - Data: 03 00 00 00  returns 0x01 (0001ms, 0432ms total)
T26B4 003:797 JLINK_ReadMemU32(0xE0001028, 0x0001 Items, ...) -- CPU_ReadMem(4 bytes @ 0xE0001028) - Data: 00 00 00 00  returns 0x01 (0003ms, 0435ms total)
T26B4 003:800 JLINK_ReadMemU32(0xE0001038, 0x0001 Items, ...) -- CPU_ReadMem(4 bytes @ 0xE0001038) - Data: 00 02 00 00  returns 0x01 (0001ms, 0436ms total)
T26B4 003:801 JLINK_ReadMemU32(0xE0001048, 0x0001 Items, ...) -- CPU_ReadMem(4 bytes @ 0xE0001048) - Data: 00 00 00 00  returns 0x01 (0003ms, 0439ms total)
T26B4 003:804 JLINK_ReadMemU32(0xE0001058, 0x0001 Items, ...) -- CPU_ReadMem(4 bytes @ 0xE0001058) - Data: 00 00 00 00  returns 0x01 (0001ms, 0440ms total)
T26B4 003:806 JLINK_ReadReg(R0)  returns 0x20002E70 (0000ms, 0440ms total)
T26B4 003:806 JLINK_ReadReg(R1)  returns 0x20003070 (0000ms, 0440ms total)
T26B4 003:806 JLINK_ReadReg(R2)  returns 0x20003070 (0000ms, 0440ms total)
T26B4 003:806 JLINK_ReadReg(R3)  returns 0x20003070 (0000ms, 0440ms total)
T26B4 003:806 JLINK_ReadReg(R4)  returns 0x00000000 (0000ms, 0440ms total)
T26B4 003:806 JLINK_ReadReg(R5)  returns 0x20002E0C (0000ms, 0440ms total)
T26B4 003:806 JLINK_ReadReg(R6)  returns 0x00000000 (0000ms, 0440ms total)
T26B4 003:806 JLINK_ReadReg(R7)  returns 0x00000000 (0000ms, 0440ms total)
T26B4 003:806 JLINK_ReadReg(R8)  returns 0x00000000 (0001ms, 0441ms total)
T26B4 003:807 JLINK_ReadReg(R9)  returns 0x00000000 (0000ms, 0441ms total)
T26B4 003:807 JLINK_ReadReg(R10)  returns 0x08006DA0 (0000ms, 0441ms total)
T26B4 003:807 JLINK_ReadReg(R11)  returns 0x00000000 (0000ms, 0441ms total)
T26B4 003:807 JLINK_ReadReg(R12)  returns 0x20002E4C (0000ms, 0441ms total)
T26B4 003:807 JLINK_ReadReg(R13 (SP))  returns 0x20003470 (0000ms, 0441ms total)
T26B4 003:807 JLINK_ReadReg(R14)  returns 0x0800025B (0000ms, 0441ms total)
T26B4 003:807 JLINK_ReadReg(R15 (PC))  returns 0x08005948 (0000ms, 0441ms total)
T26B4 003:807 JLINK_ReadReg(XPSR)  returns 0x21000000 (0000ms, 0441ms total)
T26B4 003:807 JLINK_ReadReg(MSP)  returns 0x20003470 (0000ms, 0441ms total)
T26B4 003:807 JLINK_ReadReg(PSP)  returns 0x00000000 (0001ms, 0442ms total)
T26B4 003:808 JLINK_ReadReg(CFBP)  returns 0x04000000 (0000ms, 0442ms total)
T26B4 003:808 JLINK_ReadReg(FPSCR)  returns 0x03000000 (0007ms, 0449ms total)
T26B4 003:815 JLINK_ReadReg(FPS0)  returns 0x00000000 (0000ms, 0449ms total)
T26B4 003:815 JLINK_ReadReg(FPS1)  returns 0x00000000 (0000ms, 0449ms total)
T26B4 003:815 JLINK_ReadReg(FPS2)  returns 0x00000000 (0000ms, 0449ms total)
T26B4 003:815 JLINK_ReadReg(FPS3)  returns 0x00000000 (0001ms, 0450ms total)
T26B4 003:816 JLINK_ReadReg(FPS4)  returns 0x00000000 (0000ms, 0450ms total)
T26B4 003:816 JLINK_ReadReg(FPS5)  returns 0x00000000 (0000ms, 0450ms total)
T26B4 003:816 JLINK_ReadReg(FPS6)  returns 0x00000000 (0000ms, 0450ms total)
T26B4 003:816 JLINK_ReadReg(FPS7)  returns 0x00000000 (0000ms, 0450ms total)
T26B4 003:816 JLINK_ReadReg(FPS8)  returns 0x00000000 (0000ms, 0450ms total)
T26B4 003:816 JLINK_ReadReg(FPS9)  returns 0x00000000 (0000ms, 0450ms total)
T26B4 003:816 JLINK_ReadReg(FPS10)  returns 0x00000000 (0000ms, 0450ms total)
T26B4 003:816 JLINK_ReadReg(FPS11)  returns 0x00000000 (0000ms, 0450ms total)
T26B4 003:816 JLINK_ReadReg(FPS12)  returns 0x00000000 (0000ms, 0450ms total)
T26B4 003:816 JLINK_ReadReg(FPS13)  returns 0x00000000 (0000ms, 0450ms total)
T26B4 003:816 JLINK_ReadReg(FPS14)  returns 0x00000000 (0000ms, 0450ms total)
T26B4 003:816 JLINK_ReadReg(FPS15)  returns 0x00000000 (0000ms, 0450ms total)
T26B4 003:816 JLINK_ReadReg(FPS16)  returns 0x00000000 (0000ms, 0450ms total)
T26B4 003:816 JLINK_ReadReg(FPS17)  returns 0x00000000 (0000ms, 0450ms total)
T26B4 003:816 JLINK_ReadReg(FPS18)  returns 0x00000000 (0000ms, 0450ms total)
T26B4 003:816 JLINK_ReadReg(FPS19)  returns 0x00000000 (0000ms, 0450ms total)
T26B4 003:817 JLINK_ReadReg(FPS20)  returns 0x00000000 (0000ms, 0451ms total)
T26B4 003:817 JLINK_ReadReg(FPS21)  returns 0x00000000 (0000ms, 0451ms total)
T26B4 003:817 JLINK_ReadReg(FPS22)  returns 0x00000000 (0000ms, 0451ms total)
T26B4 003:817 JLINK_ReadReg(FPS23)  returns 0x00000000 (0000ms, 0451ms total)
T26B4 003:817 JLINK_ReadReg(FPS24)  returns 0x00000000 (0000ms, 0451ms total)
T26B4 003:817 JLINK_ReadReg(FPS25)  returns 0x00000000 (0000ms, 0451ms total)
T26B4 003:817 JLINK_ReadReg(FPS26)  returns 0x00000000 (0000ms, 0451ms total)
T26B4 003:817 JLINK_ReadReg(FPS27)  returns 0x00000000 (0000ms, 0451ms total)
T26B4 003:817 JLINK_ReadReg(FPS28)  returns 0x00000000 (0000ms, 0451ms total)
T26B4 003:817 JLINK_ReadReg(FPS29)  returns 0x00000000 (0000ms, 0451ms total)
T26B4 003:817 JLINK_ReadReg(FPS30)  returns 0x00000000 (0000ms, 0451ms total)
T26B4 003:817 JLINK_ReadReg(FPS31)  returns 0x00000000 (0000ms, 0451ms total)
T383C 003:847 JLINK_ReadMem (0x00000000, 0x0004 Bytes, ...) -- CPU_ReadMem(4 bytes @ 0x00000004) -- CPU_ReadMem(64 bytes @ 0x08000000) -- Updating C cache (64 bytes @ 0x08000000) -- Read from C cache (4 bytes @ 0x08000000) - Data: 70 34 00 20  returns 0x00 (0003ms, 0454ms total)
T383C 003:850 JLINK_ReadMem (0x2000012A, 0x0001 Bytes, ...) -- CPU_ReadMem(64 bytes @ 0x20000100) -- Updating C cache (64 bytes @ 0x20000100) -- Read from C cache (1 bytes @ 0x2000012A) - Data: 00  returns 0x00 (0002ms, 0456ms total)
T383C 003:852 JLINK_ReadMem (0x200000F0, 0x0004 Bytes, ...) -- CPU_ReadMem(64 bytes @ 0x200000C0) -- Updating C cache (64 bytes @ 0x200000C0) -- Read from C cache (4 bytes @ 0x200000F0) - Data: 00 00 00 00  returns 0x00 (0001ms, 0457ms total)
T383C 003:854 JLINK_ReadMem (0x20000048, 0x0004 Bytes, ...) -- CPU_ReadMem(64 bytes @ 0x20000040) -- Updating C cache (64 bytes @ 0x20000040) -- Read from C cache (4 bytes @ 0x20000048) - Data: 00 00 00 00  returns 0x00 (0002ms, 0459ms total)
T383C 003:864 JLINK_ReadMem (0x08005848, 0x003C Bytes, ...) -- CPU_ReadMem(128 bytes @ 0x08005840) -- Updating C cache (128 bytes @ 0x08005840) -- Read from C cache (60 bytes @ 0x08005848) - Data: 4F F4 07 70 94 FB F0 F0 C6 B2 4F F4 07 70 94 FB ...  returns 0x00 (0003ms, 0462ms total)
T383C 003:867 JLINK_ReadMem (0x08005884, 0x003C Bytes, ...) -- Read from C cache (60 bytes @ 0x08005884) - Data: 4F F0 E0 23 5A 61 00 22 9A 61 1A 46 12 69 42 F0 ...  returns 0x00 (0000ms, 0462ms total)
T383C 003:867 JLINK_ReadMem (0x080058C0, 0x003C Bytes, ...) -- CPU_ReadMem(64 bytes @ 0x080058C0) -- Updating C cache (64 bytes @ 0x080058C0) -- Read from C cache (60 bytes @ 0x080058C0) - Data: 9A 61 70 47 22 01 00 20 10 B5 02 48 FD F7 E6 F9 ...  returns 0x00 (0001ms, 0463ms total)
T383C 003:868 JLINK_ReadMem (0x080058FC, 0x003C Bytes, ...) -- CPU_ReadMem(64 bytes @ 0x08005900) -- Updating C cache (64 bytes @ 0x08005900) -- Read from C cache (60 bytes @ 0x080058FC) - Data: F9 D0 C2 B2 01 4B 9A 80 70 47 00 00 00 10 01 40 ...  returns 0x00 (0002ms, 0465ms total)
T383C 003:870 JLINK_ReadMem (0x08005938, 0x003C Bytes, ...) -- CPU_ReadMem(64 bytes @ 0x08005940) -- Updating C cache (64 bytes @ 0x08005940) -- Read from C cache (60 bytes @ 0x08005938) - Data: 40 1A 61 EE 80 1A B0 EE 61 0A 70 47 DF 59 37 5F ...  returns 0x00 (0002ms, 0467ms total)
T26B4 022:593 JLINK_SetBPEx(Addr = 0x0800051A, Type = 0xFFFFFFF2)  returns 0x00000005 (0000ms, 0467ms total)
T26B4 022:593 JLINK_SetBPEx(Addr = 0x0800242A, Type = 0xFFFFFFF2)  returns 0x00000006 (0000ms, 0467ms total)
T26B4 022:593 JLINK_SetBPEx(Addr = 0x08002454, Type = 0xFFFFFFF2)  returns 0x00000007 (0000ms, 0467ms total)
T26B4 022:594 JLINK_Go() -- CPU_ReadMem(4 bytes @ 0xE0001000) -- CPU_WriteMem(4 bytes @ 0xE0002008) -- CPU_WriteMem(4 bytes @ 0xE000200C) -- CPU_WriteMem(4 bytes @ 0xE0002010) -- CPU_WriteMem(4 bytes @ 0xE0002014) (0005ms, 0473ms total)
T26B4 022:700 JLINK_IsHalted()  returns TRUE (0005ms, 0478ms total)
T26B4 022:705 JLINK_Halt()  returns 0x00 (0001ms, 0474ms total)
T26B4 022:706 JLINK_IsHalted()  returns TRUE (0000ms, 0474ms total)
T26B4 022:706 JLINK_IsHalted()  returns TRUE (0000ms, 0474ms total)
T26B4 022:706 JLINK_IsHalted()  returns TRUE (0000ms, 0474ms total)
T26B4 022:706 JLINK_ReadReg(R15 (PC))  returns 0x0800242A (0000ms, 0474ms total)
T26B4 022:706 JLINK_ReadReg(XPSR)  returns 0x41000000 (0000ms, 0474ms total)
T26B4 022:706 JLINK_ClrBPEx(BPHandle = 0x00000005)  returns 0x00 (0000ms, 0474ms total)
T26B4 022:706 JLINK_ClrBPEx(BPHandle = 0x00000006)  returns 0x00 (0000ms, 0474ms total)
T26B4 022:706 JLINK_ClrBPEx(BPHandle = 0x00000007)  returns 0x00 (0000ms, 0474ms total)
T26B4 022:707 JLINK_ReadMemU32(0xE000ED30, 0x0001 Items, ...) -- CPU_ReadMem(4 bytes @ 0xE000ED30) - Data: 03 00 00 00  returns 0x01 (0001ms, 0476ms total)
T26B4 022:708 JLINK_ReadMemU32(0xE0001028, 0x0001 Items, ...) -- CPU_ReadMem(4 bytes @ 0xE0001028) - Data: 00 00 00 00  returns 0x01 (0001ms, 0477ms total)
T26B4 022:709 JLINK_ReadMemU32(0xE0001038, 0x0001 Items, ...) -- CPU_ReadMem(4 bytes @ 0xE0001038) - Data: 00 02 00 00  returns 0x01 (0002ms, 0479ms total)
T26B4 022:711 JLINK_ReadMemU32(0xE0001048, 0x0001 Items, ...) -- CPU_ReadMem(4 bytes @ 0xE0001048) - Data: 00 00 00 00  returns 0x01 (0001ms, 0480ms total)
T26B4 022:712 JLINK_ReadMemU32(0xE0001058, 0x0001 Items, ...) -- CPU_ReadMem(4 bytes @ 0xE0001058) - Data: 00 00 00 00  returns 0x01 (0001ms, 0481ms total)
T26B4 022:714 JLINK_ReadReg(R0)  returns 0x00000000 (0000ms, 0482ms total)
T26B4 022:714 JLINK_ReadReg(R1)  returns 0x00000053 (0000ms, 0482ms total)
T26B4 022:714 JLINK_ReadReg(R2)  returns 0xFFFFFFFF (0000ms, 0482ms total)
T26B4 022:714 JLINK_ReadReg(R3)  returns 0x00000000 (0000ms, 0482ms total)
T26B4 022:714 JLINK_ReadReg(R4)  returns 0x00000000 (0000ms, 0482ms total)
T26B4 022:714 JLINK_ReadReg(R5)  returns 0x20002E0C (0000ms, 0482ms total)
T26B4 022:714 JLINK_ReadReg(R6)  returns 0x00000000 (0000ms, 0482ms total)
T26B4 022:714 JLINK_ReadReg(R7)  returns 0x00000000 (0000ms, 0482ms total)
T26B4 022:714 JLINK_ReadReg(R8)  returns 0x00000000 (0000ms, 0482ms total)
T26B4 022:714 JLINK_ReadReg(R9)  returns 0x00000000 (0000ms, 0482ms total)
T26B4 022:714 JLINK_ReadReg(R10)  returns 0x08006DA0 (0000ms, 0482ms total)
T26B4 022:714 JLINK_ReadReg(R11)  returns 0x00000000 (0000ms, 0482ms total)
T26B4 022:715 JLINK_ReadReg(R12)  returns 0x00000150 (0000ms, 0483ms total)
T26B4 022:715 JLINK_ReadReg(R13 (SP))  returns 0x20003460 (0000ms, 0483ms total)
T26B4 022:715 JLINK_ReadReg(R14)  returns 0x0800259B (0000ms, 0483ms total)
T26B4 022:715 JLINK_ReadReg(R15 (PC))  returns 0x0800242A (0000ms, 0483ms total)
T26B4 022:715 JLINK_ReadReg(XPSR)  returns 0x41000000 (0000ms, 0483ms total)
T26B4 022:715 JLINK_ReadReg(MSP)  returns 0x20003460 (0000ms, 0483ms total)
T26B4 022:715 JLINK_ReadReg(PSP)  returns 0x00000000 (0000ms, 0483ms total)
T26B4 022:715 JLINK_ReadReg(CFBP)  returns 0x04000000 (0000ms, 0483ms total)
T26B4 022:715 JLINK_ReadReg(FPSCR)  returns 0x03000000 (0006ms, 0489ms total)
T26B4 022:721 JLINK_ReadReg(FPS0)  returns 0x00000000 (0000ms, 0489ms total)
T26B4 022:721 JLINK_ReadReg(FPS1)  returns 0x00000000 (0000ms, 0489ms total)
T26B4 022:721 JLINK_ReadReg(FPS2)  returns 0x00000000 (0000ms, 0489ms total)
T26B4 022:721 JLINK_ReadReg(FPS3)  returns 0x00000000 (0000ms, 0489ms total)
T26B4 022:721 JLINK_ReadReg(FPS4)  returns 0x00000000 (0001ms, 0490ms total)
T26B4 022:722 JLINK_ReadReg(FPS5)  returns 0x00000000 (0000ms, 0490ms total)
T26B4 022:722 JLINK_ReadReg(FPS6)  returns 0x00000000 (0000ms, 0490ms total)
T26B4 022:722 JLINK_ReadReg(FPS7)  returns 0x00000000 (0000ms, 0490ms total)
T26B4 022:722 JLINK_ReadReg(FPS8)  returns 0x00000000 (0000ms, 0490ms total)
T26B4 022:722 JLINK_ReadReg(FPS9)  returns 0x00000000 (0000ms, 0490ms total)
T26B4 022:722 JLINK_ReadReg(FPS10)  returns 0x00000000 (0000ms, 0490ms total)
T26B4 022:722 JLINK_ReadReg(FPS11)  returns 0x00000000 (0000ms, 0490ms total)
T26B4 022:722 JLINK_ReadReg(FPS12)  returns 0x00000000 (0000ms, 0490ms total)
T26B4 022:722 JLINK_ReadReg(FPS13)  returns 0x00000000 (0000ms, 0490ms total)
T26B4 022:722 JLINK_ReadReg(FPS14)  returns 0x00000000 (0001ms, 0491ms total)
T26B4 022:723 JLINK_ReadReg(FPS15)  returns 0x00000000 (0000ms, 0491ms total)
T26B4 022:723 JLINK_ReadReg(FPS16)  returns 0x00000000 (0000ms, 0491ms total)
T26B4 022:723 JLINK_ReadReg(FPS17)  returns 0x00000000 (0000ms, 0491ms total)
T26B4 022:723 JLINK_ReadReg(FPS18)  returns 0x00000000 (0000ms, 0491ms total)
T26B4 022:723 JLINK_ReadReg(FPS19)  returns 0x00000000 (0000ms, 0491ms total)
T26B4 022:723 JLINK_ReadReg(FPS20)  returns 0x00000000 (0000ms, 0491ms total)
T26B4 022:723 JLINK_ReadReg(FPS21)  returns 0x00000000 (0000ms, 0491ms total)
T26B4 022:723 JLINK_ReadReg(FPS22)  returns 0x00000000 (0000ms, 0491ms total)
T26B4 022:723 JLINK_ReadReg(FPS23)  returns 0x00000000 (0000ms, 0491ms total)
T26B4 022:723 JLINK_ReadReg(FPS24)  returns 0x00000000 (0000ms, 0491ms total)
T26B4 022:723 JLINK_ReadReg(FPS25)  returns 0x00000000 (0000ms, 0491ms total)
T26B4 022:723 JLINK_ReadReg(FPS26)  returns 0x00000000 (0000ms, 0491ms total)
T26B4 022:723 JLINK_ReadReg(FPS27)  returns 0x00000000 (0000ms, 0491ms total)
T26B4 022:723 JLINK_ReadReg(FPS28)  returns 0x00000000 (0000ms, 0491ms total)
T26B4 022:723 JLINK_ReadReg(FPS29)  returns 0x00000000 (0000ms, 0491ms total)
T26B4 022:723 JLINK_ReadReg(FPS30)  returns 0x00000000 (0000ms, 0491ms total)
T26B4 022:724 JLINK_ReadReg(FPS31)  returns 0x00000000 (0000ms, 0492ms total)
T383C 022:724 JLINK_ReadMem (0x20003464, 0x0004 Bytes, ...) -- CPU_ReadMem(64 bytes @ 0x20003440) -- Updating C cache (64 bytes @ 0x20003440) -- Read from C cache (4 bytes @ 0x20003464) - Data: 9B 25 00 08  returns 0x00 (0001ms, 0493ms total)
T383C 022:725 JLINK_ReadMem (0x2000346C, 0x0004 Bytes, ...) -- Read from C cache (4 bytes @ 0x2000346C) - Data: 67 59 00 08  returns 0x00 (0000ms, 0493ms total)
T383C 022:725 JLINK_ReadMem (0x20003468, 0x0004 Bytes, ...) -- Read from C cache (4 bytes @ 0x20003468) - Data: 00 00 00 00  returns 0x00 (0000ms, 0493ms total)
T383C 022:726 JLINK_ReadMem (0x20003460, 0x0001 Bytes, ...) -- Read from C cache (1 bytes @ 0x20003460) - Data: 00  returns 0x00 (0000ms, 0494ms total)
T383C 022:728 JLINK_ReadMem (0x00000000, 0x0004 Bytes, ...) -- CPU_ReadMem(4 bytes @ 0x00000004) -- CPU_ReadMem(64 bytes @ 0x08000000) -- Updating C cache (64 bytes @ 0x08000000) -- Read from C cache (4 bytes @ 0x08000000) - Data: 70 34 00 20  returns 0x00 (0002ms, 0496ms total)
T383C 022:731 JLINK_ReadMem (0x2000012A, 0x0001 Bytes, ...) -- CPU_ReadMem(64 bytes @ 0x20000100) -- Updating C cache (64 bytes @ 0x20000100) -- Read from C cache (1 bytes @ 0x2000012A) - Data: 00  returns 0x00 (0001ms, 0497ms total)
T383C 022:732 JLINK_ReadMem (0x200000F0, 0x0004 Bytes, ...) -- CPU_ReadMem(64 bytes @ 0x200000C0) -- Updating C cache (64 bytes @ 0x200000C0) -- Read from C cache (4 bytes @ 0x200000F0) - Data: 00 00 00 00  returns 0x00 (0001ms, 0498ms total)
T383C 022:734 JLINK_ReadMem (0x20000048, 0x0004 Bytes, ...) -- CPU_ReadMem(64 bytes @ 0x20000040) -- Updating C cache (64 bytes @ 0x20000040) -- Read from C cache (4 bytes @ 0x20000048) - Data: 00 00 00 00  returns 0x00 (0001ms, 0499ms total)
T383C 022:741 JLINK_ReadMem (0x08002426, 0x0002 Bytes, ...) -- CPU_ReadMem(64 bytes @ 0x08002400) -- Updating C cache (64 bytes @ 0x08002400) -- Read from C cache (2 bytes @ 0x08002426) - Data: 00 20  returns 0x00 (0001ms, 0500ms total)
T383C 022:742 JLINK_ReadMem (0x08002428, 0x003C Bytes, ...) -- CPU_ReadMem(64 bytes @ 0x08002440) -- Updating C cache (64 bytes @ 0x08002440) -- Read from C cache (60 bytes @ 0x08002428) - Data: 00 90 FE F7 1B FF 01 23 6A 46 75 21 D0 20 FE F7 ...  returns 0x00 (0002ms, 0502ms total)
T26B4 024:662 JLINK_Step() -- Read from C cache (2 bytes @ 0x0800242A) -- CPU_ReadMem(4 bytes @ 0xE000ED18) -- CPU_WriteMem(4 bytes @ 0xE000ED18) -- CPU_ReadMem(4 bytes @ 0xE000ED18) -- CPU_WriteMem(4 bytes @ 0xE000ED18) -- CPU_ReadMem(4 bytes @ 0xE0001004) -- Read from C cache (2 bytes @ 0x0800242C) -- Simulated  returns 0x00 (0008ms, 0510ms total)
T26B4 024:670 JLINK_ReadReg(R15 (PC))  returns 0x08001264 (0000ms, 0510ms total)
T26B4 024:670 JLINK_ReadReg(XPSR)  returns 0x41000000 (0000ms, 0510ms total)
T26B4 024:670 JLINK_SetBPEx(Addr = 0x0800051A, Type = 0xFFFFFFF2)  returns 0x00000008 (0000ms, 0510ms total)
T26B4 024:670 JLINK_SetBPEx(Addr = 0x0800242A, Type = 0xFFFFFFF2)  returns 0x00000009 (0000ms, 0510ms total)
T26B4 024:670 JLINK_SetBPEx(Addr = 0x08002454, Type = 0xFFFFFFF2)  returns 0x0000000A (0000ms, 0510ms total)
T26B4 024:670 JLINK_Go() -- CPU_ReadMem(4 bytes @ 0xE0001000) -- CPU_WriteMem(4 bytes @ 0xE0001004) (0005ms, 0515ms total)
T26B4 024:776 JLINK_IsHalted()  returns FALSE (0001ms, 0517ms total)
T26B4 024:878 JLINK_IsHalted()  returns FALSE (0001ms, 0517ms total)
T26B4 024:980 JLINK_IsHalted()  returns FALSE (0001ms, 0517ms total)
T26B4 025:082 JLINK_IsHalted()  returns FALSE (0000ms, 0516ms total)
T26B4 025:183 JLINK_IsHalted()  returns FALSE (0001ms, 0517ms total)
T26B4 025:285 JLINK_ReadMemU32(0xE0001004, 0x0001 Items, ...) -- CPU is running -- CPU_ReadMem(4 bytes @ 0xE0001004) - Data: B7 BC 92 05  returns 0x01 (0001ms, 0517ms total)
T383C 025:287 JLINK_ReadMem (0x00000000, 0x0004 Bytes, ...) -- CPU is running -- CPU_ReadMem(4 bytes @ 0x00000004) -- CPU is running -- CPU_ReadMem(4 bytes @ 0x08000000) - Data: 70 34 00 20  returns 0x00 (0003ms, 0520ms total)
T383C 025:290 JLINK_ReadMem (0x2000012A, 0x0001 Bytes, ...) -- CPU is running -- CPU_ReadMem(1 bytes @ 0x2000012A) - Data: 00  returns 0x00 (0001ms, 0521ms total)
T383C 025:291 JLINK_ReadMem (0x200000F0, 0x0004 Bytes, ...) -- CPU is running -- CPU_ReadMem(4 bytes @ 0x200000F0) - Data: 00 00 00 00  returns 0x00 (0002ms, 0523ms total)
T383C 025:294 JLINK_ReadMem (0x20000048, 0x0004 Bytes, ...) -- CPU is running -- CPU_ReadMem(4 bytes @ 0x20000048) - Data: 00 00 00 00  returns 0x00 (0001ms, 0524ms total)
T26B4 025:295 JLINK_IsHalted()  returns TRUE (0005ms, 0529ms total)
T26B4 025:300 JLINK_Halt()  returns 0x00 (0000ms, 0524ms total)
T26B4 025:300 JLINK_IsHalted()  returns TRUE (0000ms, 0524ms total)
T26B4 025:300 JLINK_IsHalted()  returns TRUE (0000ms, 0524ms total)
T26B4 025:300 JLINK_IsHalted()  returns TRUE (0000ms, 0524ms total)
T26B4 025:300 JLINK_ReadReg(R15 (PC))  returns 0x0800051A (0001ms, 0525ms total)
T26B4 025:301 JLINK_ReadReg(XPSR)  returns 0x61000000 (0000ms, 0525ms total)
T26B4 025:301 JLINK_ClrBPEx(BPHandle = 0x00000008)  returns 0x00 (0000ms, 0525ms total)
T26B4 025:301 JLINK_ClrBPEx(BPHandle = 0x00000009)  returns 0x00 (0000ms, 0525ms total)
T26B4 025:301 JLINK_ClrBPEx(BPHandle = 0x0000000A)  returns 0x00 (0000ms, 0525ms total)
T26B4 025:301 JLINK_ReadMemU32(0xE000ED30, 0x0001 Items, ...) -- CPU_ReadMem(4 bytes @ 0xE000ED30) - Data: 03 00 00 00  returns 0x01 (0001ms, 0526ms total)
T26B4 025:302 JLINK_ReadMemU32(0xE0001028, 0x0001 Items, ...) -- CPU_ReadMem(4 bytes @ 0xE0001028) - Data: 00 00 00 00  returns 0x01 (0001ms, 0527ms total)
T26B4 025:303 JLINK_ReadMemU32(0xE0001038, 0x0001 Items, ...) -- CPU_ReadMem(4 bytes @ 0xE0001038) - Data: 00 02 00 00  returns 0x01 (0002ms, 0529ms total)
T26B4 025:305 JLINK_ReadMemU32(0xE0001048, 0x0001 Items, ...) -- CPU_ReadMem(4 bytes @ 0xE0001048) - Data: 00 00 00 00  returns 0x01 (0001ms, 0530ms total)
T26B4 025:306 JLINK_ReadMemU32(0xE0001058, 0x0001 Items, ...) -- CPU_ReadMem(4 bytes @ 0xE0001058) - Data: 00 00 00 00  returns 0x01 (0001ms, 0531ms total)
T26B4 025:307 JLINK_ReadReg(R0)  returns 0x0000005A (0001ms, 0532ms total)
T26B4 025:308 JLINK_ReadReg(R1)  returns 0x080E006C (0000ms, 0532ms total)
T26B4 025:308 JLINK_ReadReg(R2)  returns 0xFFFFFFEC (0000ms, 0532ms total)
T26B4 025:308 JLINK_ReadReg(R3)  returns 0xFFFFFFFF (0000ms, 0532ms total)
T26B4 025:308 JLINK_ReadReg(R4)  returns 0x00000000 (0000ms, 0532ms total)
T26B4 025:308 JLINK_ReadReg(R5)  returns 0x20002E0C (0000ms, 0532ms total)
T26B4 025:308 JLINK_ReadReg(R6)  returns 0x00000000 (0000ms, 0532ms total)
T26B4 025:308 JLINK_ReadReg(R7)  returns 0x00000000 (0000ms, 0532ms total)
T26B4 025:308 JLINK_ReadReg(R8)  returns 0x00000000 (0000ms, 0532ms total)
T26B4 025:308 JLINK_ReadReg(R9)  returns 0x00000000 (0000ms, 0532ms total)
T26B4 025:308 JLINK_ReadReg(R10)  returns 0x08006DA0 (0000ms, 0532ms total)
T26B4 025:308 JLINK_ReadReg(R11)  returns 0x00000000 (0000ms, 0532ms total)
T26B4 025:308 JLINK_ReadReg(R12)  returns 0x00000000 (0000ms, 0532ms total)
T26B4 025:308 JLINK_ReadReg(R13 (SP))  returns 0x20003400 (0000ms, 0532ms total)
T26B4 025:308 JLINK_ReadReg(R14)  returns 0x08000513 (0000ms, 0532ms total)
T26B4 025:308 JLINK_ReadReg(R15 (PC))  returns 0x0800051A (0000ms, 0532ms total)
T26B4 025:309 JLINK_ReadReg(XPSR)  returns 0x61000000 (0000ms, 0533ms total)
T26B4 025:309 JLINK_ReadReg(MSP)  returns 0x20003400 (0000ms, 0533ms total)
T26B4 025:309 JLINK_ReadReg(PSP)  returns 0x00000000 (0000ms, 0533ms total)
T26B4 025:309 JLINK_ReadReg(CFBP)  returns 0x04000000 (0000ms, 0533ms total)
T26B4 025:309 JLINK_ReadReg(FPSCR)  returns 0x03000000 (0006ms, 0539ms total)
T26B4 025:315 JLINK_ReadReg(FPS0)  returns 0xFFFFFFFE (0000ms, 0539ms total)
T26B4 025:315 JLINK_ReadReg(FPS1)  returns 0x4023FFFF (0000ms, 0539ms total)
T26B4 025:315 JLINK_ReadReg(FPS2)  returns 0x00000000 (0000ms, 0539ms total)
T26B4 025:315 JLINK_ReadReg(FPS3)  returns 0x00000000 (0000ms, 0539ms total)
T26B4 025:315 JLINK_ReadReg(FPS4)  returns 0x00000000 (0000ms, 0539ms total)
T26B4 025:315 JLINK_ReadReg(FPS5)  returns 0x00000000 (0000ms, 0539ms total)
T26B4 025:315 JLINK_ReadReg(FPS6)  returns 0x00000000 (0000ms, 0539ms total)
T26B4 025:315 JLINK_ReadReg(FPS7)  returns 0x00000000 (0000ms, 0539ms total)
T26B4 025:316 JLINK_ReadReg(FPS8)  returns 0x00000000 (0000ms, 0540ms total)
T26B4 025:316 JLINK_ReadReg(FPS9)  returns 0x00000000 (0000ms, 0540ms total)
T26B4 025:316 JLINK_ReadReg(FPS10)  returns 0x00000000 (0000ms, 0540ms total)
T26B4 025:316 JLINK_ReadReg(FPS11)  returns 0x00000000 (0000ms, 0540ms total)
T26B4 025:316 JLINK_ReadReg(FPS12)  returns 0x00000000 (0000ms, 0540ms total)
T26B4 025:316 JLINK_ReadReg(FPS13)  returns 0x00000000 (0000ms, 0540ms total)
T26B4 025:316 JLINK_ReadReg(FPS14)  returns 0x00000000 (0000ms, 0540ms total)
T26B4 025:316 JLINK_ReadReg(FPS15)  returns 0x00000000 (0000ms, 0540ms total)
T26B4 025:316 JLINK_ReadReg(FPS16)  returns 0x00000000 (0000ms, 0540ms total)
T26B4 025:316 JLINK_ReadReg(FPS17)  returns 0x00000000 (0000ms, 0540ms total)
T26B4 025:316 JLINK_ReadReg(FPS18)  returns 0x00000000 (0000ms, 0540ms total)
T26B4 025:316 JLINK_ReadReg(FPS19)  returns 0x00000000 (0000ms, 0540ms total)
T26B4 025:316 JLINK_ReadReg(FPS20)  returns 0x00000000 (0000ms, 0540ms total)
T26B4 025:316 JLINK_ReadReg(FPS21)  returns 0x00000000 (0000ms, 0540ms total)
T26B4 025:316 JLINK_ReadReg(FPS22)  returns 0x00000000 (0000ms, 0540ms total)
T26B4 025:316 JLINK_ReadReg(FPS23)  returns 0x00000000 (0000ms, 0540ms total)
T26B4 025:316 JLINK_ReadReg(FPS24)  returns 0x00000000 (0000ms, 0540ms total)
T26B4 025:316 JLINK_ReadReg(FPS25)  returns 0x00000000 (0000ms, 0540ms total)
T26B4 025:317 JLINK_ReadReg(FPS26)  returns 0x00000000 (0000ms, 0541ms total)
T26B4 025:317 JLINK_ReadReg(FPS27)  returns 0x00000000 (0000ms, 0541ms total)
T26B4 025:317 JLINK_ReadReg(FPS28)  returns 0x00000000 (0000ms, 0541ms total)
T26B4 025:317 JLINK_ReadReg(FPS29)  returns 0x00000000 (0000ms, 0541ms total)
T26B4 025:317 JLINK_ReadReg(FPS30)  returns 0x00000000 (0000ms, 0541ms total)
T26B4 025:317 JLINK_ReadReg(FPS31)  returns 0x00000000 (0000ms, 0541ms total)
T383C 025:317 JLINK_ReadMem (0x2000346C, 0x0004 Bytes, ...) -- CPU_ReadMem(64 bytes @ 0x20003440) -- Updating C cache (64 bytes @ 0x20003440) -- Read from C cache (4 bytes @ 0x2000346C) - Data: 8D 59 00 08  returns 0x00 (0002ms, 0543ms total)
T383C 025:325 JLINK_ReadMem (0x00000000, 0x0004 Bytes, ...) -- CPU_ReadMem(4 bytes @ 0x00000004) -- CPU_ReadMem(64 bytes @ 0x08000000) -- Updating C cache (64 bytes @ 0x08000000) -- Read from C cache (4 bytes @ 0x08000000) - Data: 70 34 00 20  returns 0x00 (0003ms, 0546ms total)
T383C 025:328 JLINK_ReadMem (0x2000012A, 0x0001 Bytes, ...) -- CPU_ReadMem(64 bytes @ 0x20000100) -- Updating C cache (64 bytes @ 0x20000100) -- Read from C cache (1 bytes @ 0x2000012A) - Data: 00  returns 0x00 (0002ms, 0548ms total)
T383C 025:330 JLINK_ReadMem (0x200000F0, 0x0004 Bytes, ...) -- CPU_ReadMem(64 bytes @ 0x200000C0) -- Updating C cache (64 bytes @ 0x200000C0) -- Read from C cache (4 bytes @ 0x200000F0) - Data: 00 00 00 00  returns 0x00 (0001ms, 0549ms total)
T383C 025:332 JLINK_ReadMem (0x20000048, 0x0004 Bytes, ...) -- CPU_ReadMem(64 bytes @ 0x20000040) -- Updating C cache (64 bytes @ 0x20000040) -- Read from C cache (4 bytes @ 0x20000048) - Data: 00 00 00 00  returns 0x00 (0001ms, 0550ms total)
T383C 025:344 JLINK_ReadMem (0x08000512, 0x0002 Bytes, ...) -- CPU_ReadMem(64 bytes @ 0x08000500) -- Updating C cache (64 bytes @ 0x08000500) -- Read from C cache (2 bytes @ 0x08000512) - Data: 9D F8  returns 0x00 (0002ms, 0552ms total)
T383C 025:346 JLINK_ReadMem (0x08000514, 0x003C Bytes, ...) -- CPU_ReadMem(64 bytes @ 0x08000540) -- Updating C cache (64 bytes @ 0x08000540) -- Read from C cache (60 bytes @ 0x08000514) - Data: 00 00 5A 28 08 D1 01 20 2E 49 08 70 6A 22 69 46 ...  returns 0x00 (0001ms, 0553ms total)
T26B4 026:080 JLINK_Step() -- Read from C cache (2 bytes @ 0x0800051A) -- CPU_ReadMem(4 bytes @ 0xE0001004) -- Simulated  returns 0x00 (0003ms, 0556ms total)
T26B4 026:083 JLINK_ReadReg(R15 (PC))  returns 0x0800051C (0000ms, 0556ms total)
T26B4 026:083 JLINK_ReadReg(XPSR)  returns 0x21000000 (0000ms, 0556ms total)
T26B4 026:084 JLINK_SetBPEx(Addr = 0x0800051A, Type = 0xFFFFFFF2)  returns 0x0000000B (0000ms, 0556ms total)
T26B4 026:084 JLINK_SetBPEx(Addr = 0x0800242A, Type = 0xFFFFFFF2)  returns 0x0000000C (0000ms, 0556ms total)
T26B4 026:084 JLINK_SetBPEx(Addr = 0x08002454, Type = 0xFFFFFFF2)  returns 0x0000000D (0000ms, 0556ms total)
T26B4 026:084 JLINK_Go() -- CPU_ReadMem(4 bytes @ 0xE0001000) -- CPU_WriteMem(4 bytes @ 0xE0001004) (0005ms, 0561ms total)
T26B4 026:190 JLINK_IsHalted()  returns FALSE (0001ms, 0563ms total)
T26B4 026:292 JLINK_IsHalted()  returns FALSE (0002ms, 0564ms total)
T26B4 026:395 JLINK_IsHalted()  returns FALSE (0000ms, 0562ms total)
T26B4 026:496 JLINK_IsHalted()  returns FALSE (0001ms, 0563ms total)
T26B4 026:597 JLINK_ReadMemU32(0xE0001004, 0x0001 Items, ...) -- CPU is running -- CPU_ReadMem(4 bytes @ 0xE0001004) - Data: 2C 91 AB 0A  returns 0x01 (0001ms, 0563ms total)
T383C 026:601 JLINK_ReadMem (0x00000000, 0x0004 Bytes, ...) -- CPU is running -- CPU_ReadMem(4 bytes @ 0x00000004) -- CPU is running -- CPU_ReadMem(4 bytes @ 0x08000000) - Data: 70 34 00 20  returns 0x00 (0003ms, 0566ms total)
T383C 026:604 JLINK_ReadMem (0x2000012A, 0x0001 Bytes, ...) -- CPU is running -- CPU_ReadMem(1 bytes @ 0x2000012A) - Data: 00  returns 0x00 (0001ms, 0567ms total)
T383C 026:605 JLINK_ReadMem (0x200000F0, 0x0004 Bytes, ...) -- CPU is running -- CPU_ReadMem(4 bytes @ 0x200000F0) - Data: 00 00 40 40  returns 0x00 (0002ms, 0569ms total)
T383C 026:607 JLINK_ReadMem (0x20000048, 0x0004 Bytes, ...) -- CPU is running -- CPU_ReadMem(4 bytes @ 0x20000048) - Data: 00 04 44 46  returns 0x00 (0001ms, 0570ms total)
T26B4 026:609 JLINK_IsHalted()  returns FALSE (0001ms, 0571ms total)
T26B4 026:711 JLINK_IsHalted()  returns FALSE (0001ms, 0571ms total)
T26B4 026:812 JLINK_IsHalted()  returns FALSE (0001ms, 0571ms total)
T26B4 026:914 JLINK_IsHalted()  returns FALSE (0001ms, 0571ms total)
T26B4 027:016 JLINK_IsHalted()  returns FALSE (0001ms, 0571ms total)
T26B4 027:118 JLINK_ReadMemU32(0xE0001004, 0x0001 Items, ...) -- CPU is running -- CPU_ReadMem(4 bytes @ 0xE0001004) - Data: EF DD E4 0F  returns 0x01 (0002ms, 0572ms total)
T383C 027:122 JLINK_ReadMem (0x00000000, 0x0004 Bytes, ...) -- CPU is running -- CPU_ReadMem(4 bytes @ 0x08000000) - Data: 70 34 00 20  returns 0x00 (0001ms, 0573ms total)
T383C 027:124 JLINK_ReadMem (0x2000012A, 0x0001 Bytes, ...) -- CPU is running -- CPU_ReadMem(1 bytes @ 0x2000012A) - Data: 00  returns 0x00 (0001ms, 0575ms total)
T383C 027:125 JLINK_ReadMem (0x200000F0, 0x0004 Bytes, ...) -- CPU is running -- CPU_ReadMem(4 bytes @ 0x200000F0) - Data: 00 00 00 40  returns 0x00 (0002ms, 0577ms total)
T383C 027:128 JLINK_ReadMem (0x20000048, 0x0004 Bytes, ...) -- CPU is running -- CPU_ReadMem(4 bytes @ 0x20000048) - Data: 00 40 44 46  returns 0x00 (0001ms, 0578ms total)
T26B4 027:130 JLINK_IsHalted()  returns FALSE (0002ms, 0580ms total)
T26B4 027:232 JLINK_IsHalted()  returns FALSE (0001ms, 0579ms total)
T26B4 027:334 JLINK_IsHalted()  returns FALSE (0001ms, 0579ms total)
T26B4 027:435 JLINK_IsHalted()  returns FALSE (0001ms, 0579ms total)
T26B4 027:537 JLINK_IsHalted()  returns FALSE (0001ms, 0579ms total)
T26B4 027:638 JLINK_ReadMemU32(0xE0001004, 0x0001 Items, ...) -- CPU is running -- CPU_ReadMem(4 bytes @ 0xE0001004) - Data: AD 8B 17 15  returns 0x01 (0001ms, 0579ms total)
T383C 027:640 JLINK_ReadMem (0x00000000, 0x0004 Bytes, ...) -- CPU is running -- CPU_ReadMem(4 bytes @ 0x08000000) - Data: 70 34 00 20  returns 0x00 (0001ms, 0580ms total)
T383C 027:641 JLINK_ReadMem (0x2000012A, 0x0001 Bytes, ...) -- CPU is running -- CPU_ReadMem(1 bytes @ 0x2000012A) - Data: 00  returns 0x00 (0001ms, 0581ms total)
T383C 027:642 JLINK_ReadMem (0x200000F0, 0x0004 Bytes, ...) -- CPU is running -- CPU_ReadMem(4 bytes @ 0x200000F0) - Data: 00 80 AD 43  returns 0x00 (0002ms, 0583ms total)
T383C 027:644 JLINK_ReadMem (0x20000048, 0x0004 Bytes, ...) -- CPU is running -- CPU_ReadMem(4 bytes @ 0x20000048) - Data: 00 A8 5A 46  returns 0x00 (0002ms, 0585ms total)
T26B4 027:646 JLINK_IsHalted()  returns FALSE (0001ms, 0586ms total)
T26B4 027:748 JLINK_IsHalted()  returns FALSE (0001ms, 0586ms total)
T26B4 027:850 JLINK_IsHalted()  returns FALSE (0000ms, 0585ms total)
T26B4 027:951 JLINK_IsHalted()  returns FALSE (0001ms, 0586ms total)
T26B4 028:052 JLINK_IsHalted()  returns FALSE (0002ms, 0587ms total)
T26B4 028:155 JLINK_ReadMemU32(0xE0001004, 0x0001 Items, ...) -- CPU is running -- CPU_ReadMem(4 bytes @ 0xE0001004) - Data: 86 8D 44 1A  returns 0x01 (0001ms, 0586ms total)
T383C 028:159 JLINK_ReadMem (0x00000000, 0x0004 Bytes, ...) -- CPU is running -- CPU_ReadMem(4 bytes @ 0x08000000) - Data: 70 34 00 20  returns 0x00 (0002ms, 0588ms total)
T383C 028:161 JLINK_ReadMem (0x2000012A, 0x0001 Bytes, ...) -- CPU is running -- CPU_ReadMem(1 bytes @ 0x2000012A) - Data: 00  returns 0x00 (0001ms, 0589ms total)
T383C 028:162 JLINK_ReadMem (0x200000F0, 0x0004 Bytes, ...) -- CPU is running -- CPU_ReadMem(4 bytes @ 0x200000F0) - Data: 00 00 AC 43  returns 0x00 (0001ms, 0590ms total)
T383C 028:165 JLINK_ReadMem (0x20000048, 0x0004 Bytes, ...) -- CPU is running -- CPU_ReadMem(4 bytes @ 0x20000048) - Data: 00 34 6A 46  returns 0x00 (0001ms, 0591ms total)
T26B4 028:166 JLINK_IsHalted()  returns FALSE (0002ms, 0593ms total)
T26B4 028:268 JLINK_IsHalted()  returns FALSE (0001ms, 0592ms total)
T26B4 028:369 JLINK_IsHalted()  returns FALSE (0001ms, 0592ms total)
T26B4 028:471 JLINK_IsHalted()  returns FALSE (0001ms, 0592ms total)
T26B4 028:573 JLINK_IsHalted()  returns FALSE (0000ms, 0591ms total)
T26B4 028:674 JLINK_ReadMemU32(0xE0001004, 0x0001 Items, ...) -- CPU is running -- CPU_ReadMem(4 bytes @ 0xE0001004) - Data: C2 AB 76 1F  returns 0x01 (0001ms, 0592ms total)
T383C 028:678 JLINK_ReadMem (0x00000000, 0x0004 Bytes, ...) -- CPU is running -- CPU_ReadMem(4 bytes @ 0x08000000) - Data: 70 34 00 20  returns 0x00 (0002ms, 0594ms total)
T383C 028:680 JLINK_ReadMem (0x2000012A, 0x0001 Bytes, ...) -- CPU is running -- CPU_ReadMem(1 bytes @ 0x2000012A) - Data: 00  returns 0x00 (0002ms, 0596ms total)
T383C 028:683 JLINK_ReadMem (0x200000F0, 0x0004 Bytes, ...) -- CPU is running -- CPU_ReadMem(4 bytes @ 0x200000F0) - Data: 00 00 AC 43  returns 0x00 (0001ms, 0597ms total)
T383C 028:685 JLINK_ReadMem (0x20000048, 0x0004 Bytes, ...) -- CPU is running -- CPU_ReadMem(4 bytes @ 0x20000048) - Data: 00 84 6C 46  returns 0x00 (0001ms, 0598ms total)
T26B4 028:688 JLINK_IsHalted()  returns FALSE (0001ms, 0599ms total)
T26B4 028:790 JLINK_IsHalted()  returns FALSE (0000ms, 0598ms total)
T26B4 028:891 JLINK_IsHalted()  returns FALSE (0001ms, 0599ms total)
T26B4 028:993 JLINK_IsHalted()  returns FALSE (0002ms, 0600ms total)
T26B4 029:095 JLINK_IsHalted()  returns FALSE (0001ms, 0599ms total)
T26B4 029:197 JLINK_ReadMemU32(0xE0001004, 0x0001 Items, ...) -- CPU is running -- CPU_ReadMem(4 bytes @ 0xE0001004) - Data: 78 B9 B3 24  returns 0x01 (0001ms, 0599ms total)
T383C 029:201 JLINK_ReadMem (0x00000000, 0x0004 Bytes, ...) -- CPU is running -- CPU_ReadMem(4 bytes @ 0x08000000) - Data: 70 34 00 20  returns 0x00 (0001ms, 0600ms total)
T383C 029:203 JLINK_ReadMem (0x2000012A, 0x0001 Bytes, ...) -- CPU is running -- CPU_ReadMem(1 bytes @ 0x2000012A) - Data: 00  returns 0x00 (0001ms, 0601ms total)
T383C 029:204 JLINK_ReadMem (0x200000F0, 0x0004 Bytes, ...) -- CPU is running -- CPU_ReadMem(4 bytes @ 0x200000F0) - Data: 00 00 AC 43  returns 0x00 (0001ms, 0602ms total)
T383C 029:205 JLINK_ReadMem (0x20000048, 0x0004 Bytes, ...) -- CPU is running -- CPU_ReadMem(4 bytes @ 0x20000048) - Data: 00 E8 68 46  returns 0x00 (0002ms, 0604ms total)
T26B4 029:208 JLINK_IsHalted()  returns FALSE (0001ms, 0605ms total)
T26B4 029:309 JLINK_IsHalted()  returns FALSE (0001ms, 0605ms total)
T26B4 029:411 JLINK_IsHalted()  returns FALSE (0001ms, 0605ms total)
T26B4 029:513 JLINK_IsHalted()  returns FALSE (0001ms, 0605ms total)
T26B4 029:614 JLINK_IsHalted()  returns FALSE (0001ms, 0605ms total)
T26B4 029:715 JLINK_ReadMemU32(0xE0001004, 0x0001 Items, ...) -- CPU is running -- CPU_ReadMem(4 bytes @ 0xE0001004) - Data: D8 73 E4 29  returns 0x01 (0001ms, 0605ms total)
T383C 029:718 JLINK_ReadMem (0x00000000, 0x0004 Bytes, ...) -- CPU is running -- CPU_ReadMem(4 bytes @ 0x08000000) - Data: 70 34 00 20  returns 0x00 (0001ms, 0606ms total)
T383C 029:719 JLINK_ReadMem (0x2000012A, 0x0001 Bytes, ...) -- CPU is running -- CPU_ReadMem(1 bytes @ 0x2000012A) - Data: 00  returns 0x00 (0001ms, 0607ms total)
T383C 029:720 JLINK_ReadMem (0x200000F0, 0x0004 Bytes, ...) -- CPU is running -- CPU_ReadMem(4 bytes @ 0x200000F0) - Data: 00 00 AC 43  returns 0x00 (0002ms, 0609ms total)
T383C 029:722 JLINK_ReadMem (0x20000048, 0x0004 Bytes, ...) -- CPU is running -- CPU_ReadMem(4 bytes @ 0x20000048) - Data: 00 E8 68 46  returns 0x00 (0002ms, 0611ms total)
T26B4 029:724 JLINK_IsHalted()  returns FALSE (0001ms, 0612ms total)
T26B4 029:826 JLINK_IsHalted()  returns FALSE (0001ms, 0612ms total)
T26B4 029:928 JLINK_IsHalted()  returns FALSE (0000ms, 0611ms total)
T26B4 030:029 JLINK_IsHalted()  returns FALSE (0001ms, 0612ms total)
T26B4 030:130 JLINK_IsHalted()  returns FALSE (0001ms, 0612ms total)
T26B4 030:232 JLINK_ReadMemU32(0xE0001004, 0x0001 Items, ...) -- CPU is running -- CPU_ReadMem(4 bytes @ 0xE0001004) - Data: 30 99 10 2F  returns 0x01 (0001ms, 0612ms total)
T383C 030:234 JLINK_ReadMem (0x00000000, 0x0004 Bytes, ...) -- CPU is running -- CPU_ReadMem(4 bytes @ 0x08000000) - Data: 70 34 00 20  returns 0x00 (0001ms, 0613ms total)
T383C 030:236 JLINK_ReadMem (0x2000012A, 0x0001 Bytes, ...) -- CPU is running -- CPU_ReadMem(1 bytes @ 0x2000012A) - Data: 00  returns 0x00 (0001ms, 0615ms total)
T383C 030:237 JLINK_ReadMem (0x200000F0, 0x0004 Bytes, ...) -- CPU is running -- CPU_ReadMem(4 bytes @ 0x200000F0) - Data: 00 00 AC 43  returns 0x00 (0001ms, 0616ms total)
T383C 030:238 JLINK_ReadMem (0x20000048, 0x0004 Bytes, ...) -- CPU is running -- CPU_ReadMem(4 bytes @ 0x20000048) - Data: 00 34 6A 46  returns 0x00 (0002ms, 0618ms total)
T26B4 030:241 JLINK_IsHalted()  returns FALSE (0001ms, 0619ms total)
T26B4 030:342 JLINK_IsHalted()  returns FALSE (0001ms, 0619ms total)
T26B4 030:443 JLINK_IsHalted()  returns FALSE (0001ms, 0619ms total)
T26B4 030:546 JLINK_IsHalted()  returns FALSE (0001ms, 0619ms total)
T26B4 030:647 JLINK_IsHalted()  returns FALSE (0001ms, 0619ms total)
T26B4 030:748 JLINK_ReadMemU32(0xE0001004, 0x0001 Items, ...) -- CPU is running -- CPU_ReadMem(4 bytes @ 0xE0001004) - Data: F2 62 3B 34  returns 0x01 (0001ms, 0619ms total)
T383C 030:752 JLINK_ReadMem (0x00000000, 0x0004 Bytes, ...) -- CPU is running -- CPU_ReadMem(4 bytes @ 0x08000000) - Data: 70 34 00 20  returns 0x00 (0001ms, 0620ms total)
T383C 030:753 JLINK_ReadMem (0x2000012A, 0x0001 Bytes, ...) -- CPU is running -- CPU_ReadMem(1 bytes @ 0x2000012A) - Data: 00  returns 0x00 (0001ms, 0621ms total)
T383C 030:754 JLINK_ReadMem (0x200000F0, 0x0004 Bytes, ...) -- CPU is running -- CPU_ReadMem(4 bytes @ 0x200000F0) - Data: 00 80 AC 43  returns 0x00 (0002ms, 0623ms total)
